
T11D4 000:055 SEGGER J-Link V6.50 Log File (0001ms, 0039ms total)
T11D4 000:055 DLL Compiled: Aug 16 2019 14:30:54 (0001ms, 0039ms total)
T11D4 000:055 Logging started @ 2022-07-04 09:19 (0001ms, 0039ms total)
T11D4 000:056 JLINK_SetWarnOutHandler(...) (0000ms, 0039ms total)
T11D4 000:056 JLINK_OpenEx(...)
Firmware: J-Link ARM-OB STM32 compiled Aug 22 2012 19:52:04
Hardware: V7.00
S/N: 20090928
Feature(s): RDI,FlashDL,FlashBP,JFlash,GDBFull
TELNET listener socket opened on port 19021WEBSRV 
Starting webserver (0020ms, 0059ms total)
T11D4 000:056 WEBSRV Webserver running on local port 19080 (0020ms, 0059ms total)
T11D4 000:056   returns O.K. (0020ms, 0059ms total)
T11D4 000:076 JLINK_GetEmuCaps()  returns 0x88EA5833 (0000ms, 0059ms total)
T11D4 000:076 JLINK_TIF_GetAvailable(...) (0000ms, 0059ms total)
T11D4 000:076 JLINK_SetErrorOutHandler(...) (0000ms, 0059ms total)
T11D4 000:076 JLINK_ExecCommand("ProjectFile = "G:\daima\NO OS\usb 2\USER\JLinkSettings.ini"", ...). Ref file found at: D:\KEIL5\Core\ARM\Segger\JLinkDevices.ref (0002ms, 0061ms total)
T11D4 000:076 REF file references invalid XML file: C:\Program Files (x86)\SEGGER\JLink_V650\JLinkDevices.xml (0002ms, 0061ms total)
T11D4 000:076   returns 0x00 (0002ms, 0061ms total)
T11D4 000:080 JLINK_ExecCommand("Device = STM32F103C8", ...). Device "STM32F103C8" selected.  returns 0x00 (0002ms, 0063ms total)
T11D4 000:082 JLINK_ExecCommand("DisableConnectionTimeout", ...).   returns 0x01 (0000ms, 0063ms total)
T11D4 000:082 JLINK_GetHardwareVersion()  returns 0x11170 (0000ms, 0063ms total)
T11D4 000:082 JLINK_GetDLLVersion()  returns 65000 (0000ms, 0063ms total)
T11D4 000:082 JLINK_GetFirmwareString(...) (0000ms, 0063ms total)
T11D4 000:089 JLINK_GetDLLVersion()  returns 65000 (0000ms, 0063ms total)
T11D4 000:089 JLINK_GetCompileDateTime() (0000ms, 0063ms total)
T11D4 000:091 JLINK_GetFirmwareString(...) (0000ms, 0063ms total)
T11D4 000:092 JLINK_GetHardwareVersion()  returns 0x11170 (0000ms, 0063ms total)
T11D4 000:100 JLINK_TIF_Select(JLINKARM_TIF_SWD)  returns 0x00 (0000ms, 0063ms total)
T11D4 000:100 JLINK_SetSpeed(1000) (0000ms, 0063ms total)
T11D4 000:100 JLINK_GetId() >0x10B TIF>Found SW-DP with ID 0x1BA01477 >0x0D TIF> >0x28 TIF> >0x0D TIF> >0x28 TIF> >0x0D TIF> >0x28 TIF> >0x0D TIF> >0x28 TIF> >0x0D TIF> >0x21 TIF> >0x0D TIF> >0x28 TIF> >0x0D TIF> >0x28 TIF> >0x0D TIF> >0x28 TIF> >0x0D TIF> >0x21 TIF> >0x0D TIF> >0x21 TIF> >0x0D TIF> >0x28 TIF> >0x0D TIF> >0x21 TIF> >0x0D TIF> >0x21 TIF> >0x0D TIF> >0x28 TIF> >0x0D TIF> >0x21 TIF> >0x0D TIF> >0x21 TIF> >0x0D TIF> >0x28 TIF> >0x0D TIF> >0x21 TIF> >0x0D TIF> >0x21 TIF> >0x0D TIF> >0x28 TIF>
 >0x0D TIF> >0x21 TIF> >0x0D TIF> >0x21 TIF> >0x0D TIF> >0x28 TIF> >0x0D TIF> >0x21 TIF> >0x0D TIF> >0x21 TIF> >0x0D TIF> >0x28 TIF> >0x0D TIF> >0x21 TIF> >0x0D TIF> >0x21 TIF> >0x10B TIF>Found SW-DP with ID 0x1BA01477 >0x0D TIF> >0x28 TIF> >0x0D TIF> >0x28 TIF> >0x0D TIF> >0x28 TIF> >0x0D TIF> >0x28 TIF> >0x0D TIF> >0x21 TIF> >0x0D TIF> >0x28 TIF>Scanning AP map to find all available APs >0x0D TIF> >0x28 TIF> >0x0D TIF> >0x21 TIF> >0x0D TIF> >0x21 TIF> >0x0D TIF> >0x28 TIF> >0x0D TIF> >0x21 TIF>
 >0x0D TIF> >0x21 TIF>AP[1]: Stopped AP scan as end of AP map has been reachedAP[0]: AHB-AP (IDR: 0x14770011)Iterating through AP map to find AHB-AP to use >0x42 TIF> >0x28 TIF> >0x0D TIF> >0x28 TIF> >0x0D TIF> >0x21 TIF> >0x0D TIF> >0x21 TIF> >0x42 TIF> >0x28 TIF> >0x0D TIF> >0x28 TIF> >0x0D TIF> >0x28 TIF> >0x0D TIF> >0x21 TIF> >0x0D TIF> >0x21 TIF>AP[0]: Core foundAP[0]: AHB-AP ROM base: 0xE00FF000 >0x0D TIF> >0x28 TIF> >0x0D TIF> >0x28 TIF> >0x0D TIF> >0x28 TIF> >0x0D TIF> >0x21 TIF> >0x0D TIF>
 >0x21 TIF>CPUID register: 0x411FC231. Implementer code: 0x41 (ARM)Found Cortex-M3 r1p1, Little endian. -- Max. mem block: 0x00002C18 -- CPU_ReadMem(4 bytes @ 0xE000EDF0) -- CPU_WriteMem(4 bytes @ 0xE000EDF0) -- CPU_ReadMem(4 bytes @ 0xE0002000)FPUnit: 6 code (BP) slots and 2 literal slots -- CPU_ReadMem(4 bytes @ 0xE000EDFC) -- CPU_WriteMem(4 bytes @ 0xE000EDFC) -- CPU_ReadMem(4 bytes @ 0xE0001000) -- CPU_WriteMem(4 bytes @ 0xE0001000) -- CPU_ReadMem(4 bytes @ 0xE000ED88)
 -- CPU_WriteMem(4 bytes @ 0xE000ED88) -- CPU_ReadMem(4 bytes @ 0xE000ED88) -- CPU_WriteMem(4 bytes @ 0xE000ED88)CoreSight components:ROMTbl[0] @ E00FF000 -- CPU_ReadMem(16 bytes @ 0xE00FF000) -- CPU_ReadMem(16 bytes @ 0xE000EFF0) -- CPU_ReadMem(16 bytes @ 0xE000EFE0)ROMTbl[0][0]: E000E000, CID: B105E00D, PID: 001BB000 SCS -- CPU_ReadMem(16 bytes @ 0xE0001FF0) -- CPU_ReadMem(16 bytes @ 0xE0001FE0)ROMTbl[0][1]: E0001000, CID: B105E00D, PID: 001BB002 DWT -- CPU_ReadMem(16 bytes @ 0xE0002FF0)
 -- CPU_ReadMem(16 bytes @ 0xE0002FE0)ROMTbl[0][2]: E0002000, CID: B105E00D, PID: 000BB003 FPB -- CPU_ReadMem(16 bytes @ 0xE0000FF0) -- CPU_ReadMem(16 bytes @ 0xE0000FE0)ROMTbl[0][3]: E0000000, CID: B105E00D, PID: 001BB001 ITM -- CPU_ReadMem(16 bytes @ 0xE00FF010) -- CPU_ReadMem(16 bytes @ 0xE0040FF0) -- CPU_ReadMem(16 bytes @ 0xE0040FE0)ROMTbl[0][4]: E0040000, CID: B105900D, PID: 001BB923 TPIU-Lite >0x0D TIF> >0x21 TIF>  returns 0x1BA01477 (0174ms, 0237ms total)
T11D4 000:274 JLINK_GetDLLVersion()  returns 65000 (0000ms, 0237ms total)
T11D4 000:274 JLINK_CORE_GetFound()  returns 0x30000FF (0000ms, 0237ms total)
T11D4 000:274 JLINK_GetDebugInfo(0x100 = JLINKARM_ROM_TABLE_ADDR_INDEX) -- Value=0xE00FF000  returns 0x00 (0000ms, 0237ms total)
T11D4 000:276 JLINK_GetDebugInfo(0x100 = JLINKARM_ROM_TABLE_ADDR_INDEX) -- Value=0xE00FF000  returns 0x00 (0000ms, 0237ms total)
T11D4 000:276 JLINK_GetDebugInfo(0x101 = JLINKARM_DEBUG_INFO_ETM_ADDR_INDEX) -- Value=0x00000000  returns 0x00 (0000ms, 0237ms total)
T11D4 000:276 JLINK_ReadMemEx(0xE0041FF0, 0x0010 Bytes, ..., Flags = 0x02000004) -- CPU_ReadMem(16 bytes @ 0xE0041FF0) - Data: 00 00 00 00 00 00 00 00 00 00 00 00 00 00 00 00  returns 0x10 (0001ms, 0238ms total)
T11D4 000:277 JLINK_GetDebugInfo(0x102 = JLINKARM_DEBUG_INFO_MTB_ADDR_INDEX) -- Value=0x00000000  returns 0x00 (0000ms, 0238ms total)
T11D4 000:277 JLINK_GetDebugInfo(0x103 = JLINKARM_DEBUG_INFO_TPIU_ADDR_INDEX) -- Value=0xE0040000  returns 0x00 (0000ms, 0238ms total)
T11D4 000:277 JLINK_GetDebugInfo(0x104 = JLINKARM_DEBUG_INFO_ITM_ADDR_INDEX) -- Value=0xE0000000  returns 0x00 (0000ms, 0238ms total)
T11D4 000:277 JLINK_GetDebugInfo(0x105 = JLINKARM_DEBUG_INFO_DWT_ADDR_INDEX) -- Value=0xE0001000  returns 0x00 (0000ms, 0238ms total)
T11D4 000:277 JLINK_GetDebugInfo(0x106 = JLINKARM_DEBUG_INFO_FPB_ADDR_INDEX) -- Value=0xE0002000  returns 0x00 (0000ms, 0238ms total)
T11D4 000:277 JLINK_GetDebugInfo(0x107 = JLINKARM_DEBUG_INFO_NVIC_ADDR_INDEX) -- Value=0xE000E000  returns 0x00 (0000ms, 0238ms total)
T11D4 000:277 JLINK_GetDebugInfo(0x10C = JLINKARM_DEBUG_INFO_DBG_ADDR_INDEX) -- Value=0xE000EDF0  returns 0x00 (0000ms, 0238ms total)
T11D4 000:277 JLINK_GetDebugInfo(0x01 = Unknown) -- Value=0x00000000  returns 0x00 (0000ms, 0238ms total)
T11D4 000:277 JLINK_ReadMemU32(0xE000ED00, 0x0001 Items, ...) -- CPU_ReadMem(4 bytes @ 0xE000ED00) - Data: 31 C2 1F 41  returns 1 (0001ms, 0239ms total)
T11D4 000:278 JLINK_GetDebugInfo(0x10F = JLINKARM_DEBUG_INFO_HAS_CORTEX_M_SECURITY_EXT_INDEX) -- Value=0x00000000  returns 0x00 (0000ms, 0239ms total)
T11D4 000:278 JLINK_SetResetType(JLINKARM_CM3_RESET_TYPE_NORMAL)  returns JLINKARM_CM3_RESET_TYPE_NORMAL (0000ms, 0239ms total)
T11D4 000:278 JLINK_Reset() -- CPU is running -- CPU_WriteMem(4 bytes @ 0xE000EDF0) -- CPU is running -- CPU_WriteMem(4 bytes @ 0xE000EDFC)Reset: Halt core after reset via DEMCR.VC_CORERESET. >0x35 TIF>Reset: Reset device via AIRCR.SYSRESETREQ. -- CPU is running -- CPU_WriteMem(4 bytes @ 0xE000ED0C) >0x0D TIF> >0x28 TIF> -- CPU_ReadMem(4 bytes @ 0xE000EDF0) -- CPU_ReadMem(4 bytes @ 0xE000EDF0) -- CPU is running -- CPU_WriteMem(4 bytes @ 0xE000EDF0) -- CPU is running -- CPU_WriteMem(4 bytes @ 0xE000EDFC)
 -- CPU_ReadMem(4 bytes @ 0xE000EDF0) -- CPU_WriteMem(4 bytes @ 0xE0002000) -- CPU_ReadMem(4 bytes @ 0xE000EDFC) -- CPU_ReadMem(4 bytes @ 0xE0001000) (0077ms, 0316ms total)
T11D4 000:355 JLINK_Halt()  returns 0x00 (0000ms, 0316ms total)
T11D4 000:355 JLINK_ReadMemU32(0xE000EDF0, 0x0001 Items, ...) -- CPU_ReadMem(4 bytes @ 0xE000EDF0) - Data: 03 00 03 00  returns 1 (0000ms, 0316ms total)
T11D4 000:355 JLINK_WriteU32(0xE000EDF0, 0xA05F0003) -- CPU_WriteMem(4 bytes @ 0xE000EDF0)  returns 0 (0001ms, 0317ms total)
T11D4 000:356 JLINK_WriteU32(0xE000EDFC, 0x01000000) -- CPU_WriteMem(4 bytes @ 0xE000EDFC)  returns 0 (0001ms, 0318ms total)
T11D4 000:364 JLINK_GetHWStatus(...)  returns 0x00 (0000ms, 0318ms total)
T11D4 000:369 JLINK_GetNumBPUnits(Type = 0xFFFFFF00)  returns 0x06 (0000ms, 0318ms total)
T11D4 000:369 JLINK_GetNumBPUnits(Type = 0xF0)  returns 0x2000 (0000ms, 0318ms total)
T11D4 000:369 JLINK_GetNumWPUnits()  returns 0x04 (0000ms, 0318ms total)
T11D4 000:374 JLINK_GetSpeed()  returns 0x3E8 (0000ms, 0318ms total)
T11D4 000:378 JLINK_ReadMemU32(0xE000E004, 0x0001 Items, ...) -- CPU_ReadMem(4 bytes @ 0xE000E004) - Data: 01 00 00 00  returns 1 (0000ms, 0318ms total)
T11D4 000:378 JLINK_ReadMemU32(0xE000E004, 0x0001 Items, ...) -- CPU_ReadMem(4 bytes @ 0xE000E004) - Data: 01 00 00 00  returns 1 (0001ms, 0319ms total)
T11D4 000:379 JLINK_WriteMemEx(0xE0001000, 0x001C Bytes, ..., Flags = 0x02000004) - Data: 01 00 00 00 00 00 00 00 00 00 00 00 00 00 00 00 ... -- CPU_WriteMem(28 bytes @ 0xE0001000)  returns 0x1C (0002ms, 0321ms total)
T11D4 000:381 JLINK_Halt()  returns 0x00 (0000ms, 0321ms total)
T11D4 000:381 JLINK_IsHalted()  returns TRUE (0000ms, 0321ms total)
T11D4 000:383 JLINK_WriteMem(0x20000000, 0x0164 Bytes, ...) - Data: 00 BE 0A E0 0D 78 2D 06 68 40 08 24 40 00 00 D3 ... -- CPU_WriteMem(356 bytes @ 0x20000000)  returns 0x164 (0011ms, 0332ms total)
T11D4 000:394 JLINK_WriteReg(R0, 0x08000000)  returns 0x00 (0000ms, 0332ms total)
T11D4 000:394 JLINK_WriteReg(R1, 0x00B71B00)  returns 0x00 (0000ms, 0332ms total)
T11D4 000:394 JLINK_WriteReg(R2, 0x00000001)  returns 0x00 (0000ms, 0332ms total)
T11D4 000:394 JLINK_WriteReg(R3, 0x00000000)  returns 0x00 (0000ms, 0332ms total)
T11D4 000:394 JLINK_WriteReg(R4, 0x00000000)  returns 0x00 (0000ms, 0332ms total)
T11D4 000:394 JLINK_WriteReg(R5, 0x00000000)  returns 0x00 (0000ms, 0332ms total)
T11D4 000:394 JLINK_WriteReg(R6, 0x00000000)  returns 0x00 (0000ms, 0332ms total)
T11D4 000:394 JLINK_WriteReg(R7, 0x00000000)  returns 0x00 (0000ms, 0332ms total)
T11D4 000:394 JLINK_WriteReg(R8, 0x00000000)  returns 0x00 (0000ms, 0332ms total)
T11D4 000:394 JLINK_WriteReg(R9, 0x20000160)  returns 0x00 (0000ms, 0332ms total)
T11D4 000:394 JLINK_WriteReg(R10, 0x00000000)  returns 0x00 (0000ms, 0332ms total)
T11D4 000:394 JLINK_WriteReg(R11, 0x00000000)  returns 0x00 (0000ms, 0332ms total)
T11D4 000:394 JLINK_WriteReg(R12, 0x00000000)  returns 0x00 (0000ms, 0332ms total)
T11D4 000:394 JLINK_WriteReg(R13 (SP), 0x20001000)  returns 0x00 (0000ms, 0332ms total)
T11D4 000:394 JLINK_WriteReg(R14, 0x20000001)  returns 0x00 (0000ms, 0332ms total)
T11D4 000:394 JLINK_WriteReg(R15 (PC), 0x20000038)  returns 0x00 (0000ms, 0332ms total)
T11D4 000:394 JLINK_WriteReg(XPSR, 0x01000000)  returns 0x00 (0000ms, 0332ms total)
T11D4 000:394 JLINK_WriteReg(MSP, 0x20001000)  returns 0x00 (0000ms, 0332ms total)
T11D4 000:394 JLINK_WriteReg(PSP, 0x20001000)  returns 0x00 (0000ms, 0332ms total)
T11D4 000:394 JLINK_WriteReg(CFBP, 0x00000000)  returns 0x00 (0000ms, 0332ms total)
T11D4 000:394 JLINK_SetBPEx(Addr = 0x20000000, Type = 0xFFFFFFF2) -- CPU_ReadMem(2 bytes @ 0x20000000)  returns 0x00000001 (0001ms, 0333ms total)
T11D4 000:395 JLINK_Go() -- CPU_WriteMem(2 bytes @ 0x20000000) -- CPU_ReadMem(4 bytes @ 0xE0001000) -- CPU_WriteMem(4 bytes @ 0xE0002008) -- CPU_WriteMem(4 bytes @ 0xE000200C) -- CPU_WriteMem(4 bytes @ 0xE0002010) -- CPU_WriteMem(4 bytes @ 0xE0002014) -- CPU_WriteMem(4 bytes @ 0xE0002018) -- CPU_WriteMem(4 bytes @ 0xE000201C) -- CPU_WriteMem(4 bytes @ 0xE0001004) (0013ms, 0346ms total)
T11D4 000:408 JLINK_IsHalted() -- CPU_ReadMem(2 bytes @ 0x20000000)  returns TRUE (0008ms, 0354ms total)
T11D4 000:416 JLINK_ReadReg(R15 (PC))  returns 0x20000000 (0000ms, 0346ms total)
T11D4 000:416 JLINK_ClrBPEx(BPHandle = 0x00000001)  returns 0x00 (0000ms, 0346ms total)
T11D4 000:416 JLINK_ReadReg(R0)  returns 0x00000000 (0000ms, 0346ms total)
T11D4 000:417 JLINK_WriteReg(R0, 0x08000000)  returns 0x00 (0000ms, 0346ms total)
T11D4 000:417 JLINK_WriteReg(R1, 0x00B71B00)  returns 0x00 (0000ms, 0346ms total)
T11D4 000:417 JLINK_WriteReg(R2, 0x00000001)  returns 0x00 (0000ms, 0346ms total)
T11D4 000:417 JLINK_WriteReg(R3, 0x00000000)  returns 0x00 (0000ms, 0346ms total)
T11D4 000:417 JLINK_WriteReg(R4, 0x00000000)  returns 0x00 (0000ms, 0346ms total)
T11D4 000:417 JLINK_WriteReg(R5, 0x00000000)  returns 0x00 (0000ms, 0346ms total)
T11D4 000:417 JLINK_WriteReg(R6, 0x00000000)  returns 0x00 (0000ms, 0346ms total)
T11D4 000:417 JLINK_WriteReg(R7, 0x00000000)  returns 0x00 (0000ms, 0346ms total)
T11D4 000:417 JLINK_WriteReg(R8, 0x00000000)  returns 0x00 (0000ms, 0346ms total)
T11D4 000:417 JLINK_WriteReg(R9, 0x20000160)  returns 0x00 (0000ms, 0346ms total)
T11D4 000:417 JLINK_WriteReg(R10, 0x00000000)  returns 0x00 (0000ms, 0346ms total)
T11D4 000:417 JLINK_WriteReg(R11, 0x00000000)  returns 0x00 (0000ms, 0346ms total)
T11D4 000:417 JLINK_WriteReg(R12, 0x00000000)  returns 0x00 (0000ms, 0346ms total)
T11D4 000:417 JLINK_WriteReg(R13 (SP), 0x20001000)  returns 0x00 (0000ms, 0346ms total)
T11D4 000:417 JLINK_WriteReg(R14, 0x20000001)  returns 0x00 (0000ms, 0346ms total)
T11D4 000:417 JLINK_WriteReg(R15 (PC), 0x2000007C)  returns 0x00 (0000ms, 0346ms total)
T11D4 000:417 JLINK_WriteReg(XPSR, 0x01000000)  returns 0x00 (0000ms, 0346ms total)
T11D4 000:417 JLINK_WriteReg(MSP, 0x20001000)  returns 0x00 (0000ms, 0346ms total)
T11D4 000:417 JLINK_WriteReg(PSP, 0x20001000)  returns 0x00 (0000ms, 0346ms total)
T11D4 000:417 JLINK_WriteReg(CFBP, 0x00000000)  returns 0x00 (0000ms, 0346ms total)
T11D4 000:417 JLINK_SetBPEx(Addr = 0x20000000, Type = 0xFFFFFFF2)  returns 0x00000002 (0000ms, 0346ms total)
T11D4 000:417 JLINK_Go() -- CPU_ReadMem(4 bytes @ 0xE0001000) (0007ms, 0353ms total)
T11D4 000:424 JLINK_IsHalted()  returns FALSE (0001ms, 0354ms total)
T11D4 000:453 JLINK_IsHalted() -- CPU_ReadMem(2 bytes @ 0x20000000)  returns TRUE (0008ms, 0361ms total)
T11D4 000:461 JLINK_ReadReg(R15 (PC))  returns 0x20000000 (0000ms, 0353ms total)
T11D4 000:461 JLINK_ClrBPEx(BPHandle = 0x00000002)  returns 0x00 (0000ms, 0353ms total)
T11D4 000:461 JLINK_ReadReg(R0)  returns 0x00000000 (0000ms, 0353ms total)
T11D4 000:512 JLINK_WriteReg(R0, 0x00000001)  returns 0x00 (0000ms, 0353ms total)
T11D4 000:512 JLINK_WriteReg(R1, 0x00B71B00)  returns 0x00 (0000ms, 0353ms total)
T11D4 000:512 JLINK_WriteReg(R2, 0x00000001)  returns 0x00 (0000ms, 0353ms total)
T11D4 000:512 JLINK_WriteReg(R3, 0x00000000)  returns 0x00 (0000ms, 0353ms total)
T11D4 000:512 JLINK_WriteReg(R4, 0x00000000)  returns 0x00 (0000ms, 0353ms total)
T11D4 000:512 JLINK_WriteReg(R5, 0x00000000)  returns 0x00 (0000ms, 0353ms total)
T11D4 000:512 JLINK_WriteReg(R6, 0x00000000)  returns 0x00 (0000ms, 0353ms total)
T11D4 000:512 JLINK_WriteReg(R7, 0x00000000)  returns 0x00 (0000ms, 0353ms total)
T11D4 000:512 JLINK_WriteReg(R8, 0x00000000)  returns 0x00 (0000ms, 0353ms total)
T11D4 000:512 JLINK_WriteReg(R9, 0x20000160)  returns 0x00 (0000ms, 0353ms total)
T11D4 000:512 JLINK_WriteReg(R10, 0x00000000)  returns 0x00 (0000ms, 0353ms total)
T11D4 000:512 JLINK_WriteReg(R11, 0x00000000)  returns 0x00 (0000ms, 0353ms total)
T11D4 000:512 JLINK_WriteReg(R12, 0x00000000)  returns 0x00 (0000ms, 0353ms total)
T11D4 000:512 JLINK_WriteReg(R13 (SP), 0x20001000)  returns 0x00 (0000ms, 0353ms total)
T11D4 000:512 JLINK_WriteReg(R14, 0x20000001)  returns 0x00 (0000ms, 0353ms total)
T11D4 000:512 JLINK_WriteReg(R15 (PC), 0x2000006A)  returns 0x00 (0000ms, 0353ms total)
T11D4 000:512 JLINK_WriteReg(XPSR, 0x01000000)  returns 0x00 (0000ms, 0353ms total)
T11D4 000:512 JLINK_WriteReg(MSP, 0x20001000)  returns 0x00 (0000ms, 0353ms total)
T11D4 000:512 JLINK_WriteReg(PSP, 0x20001000)  returns 0x00 (0000ms, 0353ms total)
T11D4 000:512 JLINK_WriteReg(CFBP, 0x00000000)  returns 0x00 (0000ms, 0353ms total)
T11D4 000:512 JLINK_SetBPEx(Addr = 0x20000000, Type = 0xFFFFFFF2)  returns 0x00000003 (0000ms, 0353ms total)
T11D4 000:512 JLINK_Go() -- CPU_ReadMem(4 bytes @ 0xE0001000) (0008ms, 0361ms total)
T11D4 000:520 JLINK_IsHalted() -- CPU_ReadMem(2 bytes @ 0x20000000)  returns TRUE (0007ms, 0368ms total)
T11D4 000:527 JLINK_ReadReg(R15 (PC))  returns 0x20000000 (0000ms, 0361ms total)
T11D4 000:527 JLINK_ClrBPEx(BPHandle = 0x00000003)  returns 0x00 (0000ms, 0361ms total)
T11D4 000:527 JLINK_ReadReg(R0)  returns 0x00000000 (0000ms, 0361ms total)
T11D4 000:531 JLINK_WriteMem(0x20000000, 0x0164 Bytes, ...) - Data: 00 BE 0A E0 0D 78 2D 06 68 40 08 24 40 00 00 D3 ... -- CPU_WriteMem(356 bytes @ 0x20000000)  returns 0x164 (0011ms, 0372ms total)
T11D4 000:542 JLINK_WriteReg(R0, 0x08000000)  returns 0x00 (0000ms, 0372ms total)
T11D4 000:542 JLINK_WriteReg(R1, 0x00B71B00)  returns 0x00 (0000ms, 0372ms total)
T11D4 000:542 JLINK_WriteReg(R2, 0x00000002)  returns 0x00 (0000ms, 0372ms total)
T11D4 000:542 JLINK_WriteReg(R3, 0x00000000)  returns 0x00 (0000ms, 0372ms total)
T11D4 000:542 JLINK_WriteReg(R4, 0x00000000)  returns 0x00 (0000ms, 0372ms total)
T11D4 000:542 JLINK_WriteReg(R5, 0x00000000)  returns 0x00 (0000ms, 0372ms total)
T11D4 000:542 JLINK_WriteReg(R6, 0x00000000)  returns 0x00 (0000ms, 0372ms total)
T11D4 000:542 JLINK_WriteReg(R7, 0x00000000)  returns 0x00 (0000ms, 0372ms total)
T11D4 000:542 JLINK_WriteReg(R8, 0x00000000)  returns 0x00 (0000ms, 0372ms total)
T11D4 000:542 JLINK_WriteReg(R9, 0x20000160)  returns 0x00 (0000ms, 0372ms total)
T11D4 000:542 JLINK_WriteReg(R10, 0x00000000)  returns 0x00 (0000ms, 0372ms total)
T11D4 000:542 JLINK_WriteReg(R11, 0x00000000)  returns 0x00 (0000ms, 0372ms total)
T11D4 000:542 JLINK_WriteReg(R12, 0x00000000)  returns 0x00 (0000ms, 0372ms total)
T11D4 000:542 JLINK_WriteReg(R13 (SP), 0x20001000)  returns 0x00 (0000ms, 0372ms total)
T11D4 000:542 JLINK_WriteReg(R14, 0x20000001)  returns 0x00 (0000ms, 0372ms total)
T11D4 000:542 JLINK_WriteReg(R15 (PC), 0x20000038)  returns 0x00 (0000ms, 0372ms total)
T11D4 000:542 JLINK_WriteReg(XPSR, 0x01000000)  returns 0x00 (0000ms, 0372ms total)
T11D4 000:542 JLINK_WriteReg(MSP, 0x20001000)  returns 0x00 (0000ms, 0372ms total)
T11D4 000:542 JLINK_WriteReg(PSP, 0x20001000)  returns 0x00 (0000ms, 0372ms total)
T11D4 000:542 JLINK_WriteReg(CFBP, 0x00000000)  returns 0x00 (0000ms, 0372ms total)
T11D4 000:542 JLINK_SetBPEx(Addr = 0x20000000, Type = 0xFFFFFFF2) -- CPU_ReadMem(2 bytes @ 0x20000000)  returns 0x00000004 (0001ms, 0373ms total)
T11D4 000:543 JLINK_Go() -- CPU_WriteMem(2 bytes @ 0x20000000) -- CPU_ReadMem(4 bytes @ 0xE0001000) (0008ms, 0381ms total)
T11D4 000:551 JLINK_IsHalted() -- CPU_ReadMem(2 bytes @ 0x20000000)  returns TRUE (0008ms, 0389ms total)
T11D4 000:559 JLINK_ReadReg(R15 (PC))  returns 0x20000000 (0000ms, 0381ms total)
T11D4 000:559 JLINK_ClrBPEx(BPHandle = 0x00000004)  returns 0x00 (0000ms, 0381ms total)
T11D4 000:559 JLINK_ReadReg(R0)  returns 0x00000000 (0000ms, 0381ms total)
T11D4 000:559 JLINK_WriteMem(0x20000164, 0x029C Bytes, ...) - Data: D8 1A 00 20 C9 01 00 08 A1 16 00 08 59 10 00 08 ... -- CPU_WriteMem(668 bytes @ 0x20000164)  returns 0x29C (0020ms, 0401ms total)
T11D4 000:579 JLINK_WriteMem(0x20000400, 0x0164 Bytes, ...) - Data: 00 F0 02 F8 04 60 10 BD 00 48 70 47 74 14 00 20 ... -- CPU_WriteMem(356 bytes @ 0x20000400)  returns 0x164 (0011ms, 0412ms total)
T11D4 000:590 JLINK_WriteReg(R0, 0x08000000)  returns 0x00 (0000ms, 0412ms total)
T11D4 000:590 JLINK_WriteReg(R1, 0x00000400)  returns 0x00 (0000ms, 0412ms total)
T11D4 000:590 JLINK_WriteReg(R2, 0x20000164)  returns 0x00 (0000ms, 0412ms total)
T11D4 000:590 JLINK_WriteReg(R3, 0x00000000)  returns 0x00 (0000ms, 0412ms total)
T11D4 000:590 JLINK_WriteReg(R4, 0x00000000)  returns 0x00 (0000ms, 0412ms total)
T11D4 000:590 JLINK_WriteReg(R5, 0x00000000)  returns 0x00 (0000ms, 0412ms total)
T11D4 000:590 JLINK_WriteReg(R6, 0x00000000)  returns 0x00 (0000ms, 0412ms total)
T11D4 000:590 JLINK_WriteReg(R7, 0x00000000)  returns 0x00 (0000ms, 0412ms total)
T11D4 000:590 JLINK_WriteReg(R8, 0x00000000)  returns 0x00 (0000ms, 0412ms total)
T11D4 000:590 JLINK_WriteReg(R9, 0x20000160)  returns 0x00 (0000ms, 0412ms total)
T11D4 000:590 JLINK_WriteReg(R10, 0x00000000)  returns 0x00 (0000ms, 0412ms total)
T11D4 000:590 JLINK_WriteReg(R11, 0x00000000)  returns 0x00 (0000ms, 0412ms total)
T11D4 000:590 JLINK_WriteReg(R12, 0x00000000)  returns 0x00 (0000ms, 0412ms total)
T11D4 000:590 JLINK_WriteReg(R13 (SP), 0x20001000)  returns 0x00 (0000ms, 0412ms total)
T11D4 000:590 JLINK_WriteReg(R14, 0x20000001)  returns 0x00 (0000ms, 0412ms total)
T11D4 000:590 JLINK_WriteReg(R15 (PC), 0x200000F4)  returns 0x00 (0000ms, 0412ms total)
T11D4 000:590 JLINK_WriteReg(XPSR, 0x01000000)  returns 0x00 (0000ms, 0412ms total)
T11D4 000:590 JLINK_WriteReg(MSP, 0x20001000)  returns 0x00 (0000ms, 0412ms total)
T11D4 000:590 JLINK_WriteReg(PSP, 0x20001000)  returns 0x00 (0000ms, 0412ms total)
T11D4 000:590 JLINK_WriteReg(CFBP, 0x00000000)  returns 0x00 (0000ms, 0412ms total)
T11D4 000:590 JLINK_SetBPEx(Addr = 0x20000000, Type = 0xFFFFFFF2)  returns 0x00000005 (0000ms, 0412ms total)
T11D4 000:590 JLINK_Go() -- CPU_ReadMem(4 bytes @ 0xE0001000) (0007ms, 0419ms total)
T11D4 000:597 JLINK_IsHalted()  returns FALSE (0001ms, 0420ms total)
T11D4 000:603 JLINK_IsHalted()  returns FALSE (0001ms, 0420ms total)
T11D4 000:605 JLINK_IsHalted()  returns FALSE (0001ms, 0420ms total)
T11D4 000:607 JLINK_IsHalted()  returns FALSE (0001ms, 0420ms total)
T11D4 000:609 JLINK_IsHalted()  returns FALSE (0001ms, 0420ms total)
T11D4 000:611 JLINK_IsHalted()  returns FALSE (0001ms, 0420ms total)
T11D4 000:613 JLINK_IsHalted()  returns FALSE (0001ms, 0420ms total)
T11D4 000:615 JLINK_IsHalted()  returns FALSE (0001ms, 0420ms total)
T11D4 000:617 JLINK_IsHalted()  returns FALSE (0001ms, 0420ms total)
T11D4 000:619 JLINK_IsHalted()  returns FALSE (0001ms, 0420ms total)
T11D4 000:621 JLINK_IsHalted()  returns FALSE (0001ms, 0420ms total)
T11D4 000:623 JLINK_IsHalted()  returns FALSE (0001ms, 0420ms total)
T11D4 000:625 JLINK_IsHalted()  returns FALSE (0001ms, 0420ms total)
T11D4 000:627 JLINK_IsHalted()  returns FALSE (0001ms, 0420ms total)
T11D4 000:629 JLINK_IsHalted() -- CPU_ReadMem(2 bytes @ 0x20000000)  returns TRUE (0008ms, 0427ms total)
T11D4 000:637 JLINK_ReadReg(R15 (PC))  returns 0x20000000 (0000ms, 0419ms total)
T11D4 000:637 JLINK_ClrBPEx(BPHandle = 0x00000005)  returns 0x00 (0000ms, 0419ms total)
T11D4 000:637 JLINK_ReadReg(R0)  returns 0x00000000 (0000ms, 0419ms total)
T11D4 000:637 JLINK_WriteMem(0x20000164, 0x029C Bytes, ...) - Data: 20 43 90 60 D0 6A 20 F4 70 00 0C 7C 64 1E E4 B2 ... -- CPU_WriteMem(668 bytes @ 0x20000164)  returns 0x29C (0020ms, 0439ms total)
T11D4 000:657 JLINK_WriteMem(0x20000400, 0x0164 Bytes, ...) - Data: 80 51 09 B1 80 F4 80 50 39 49 09 88 01 F4 00 51 ... -- CPU_WriteMem(356 bytes @ 0x20000400)  returns 0x164 (0011ms, 0450ms total)
T11D4 000:668 JLINK_WriteReg(R0, 0x08000400)  returns 0x00 (0000ms, 0450ms total)
T11D4 000:668 JLINK_WriteReg(R1, 0x00000400)  returns 0x00 (0000ms, 0450ms total)
T11D4 000:668 JLINK_WriteReg(R2, 0x20000164)  returns 0x00 (0000ms, 0450ms total)
T11D4 000:668 JLINK_WriteReg(R3, 0x00000000)  returns 0x00 (0000ms, 0450ms total)
T11D4 000:668 JLINK_WriteReg(R4, 0x00000000)  returns 0x00 (0000ms, 0450ms total)
T11D4 000:668 JLINK_WriteReg(R5, 0x00000000)  returns 0x00 (0000ms, 0450ms total)
T11D4 000:668 JLINK_WriteReg(R6, 0x00000000)  returns 0x00 (0000ms, 0450ms total)
T11D4 000:668 JLINK_WriteReg(R7, 0x00000000)  returns 0x00 (0000ms, 0450ms total)
T11D4 000:668 JLINK_WriteReg(R8, 0x00000000)  returns 0x00 (0000ms, 0450ms total)
T11D4 000:668 JLINK_WriteReg(R9, 0x20000160)  returns 0x00 (0000ms, 0450ms total)
T11D4 000:668 JLINK_WriteReg(R10, 0x00000000)  returns 0x00 (0000ms, 0450ms total)
T11D4 000:668 JLINK_WriteReg(R11, 0x00000000)  returns 0x00 (0000ms, 0450ms total)
T11D4 000:668 JLINK_WriteReg(R12, 0x00000000)  returns 0x00 (0000ms, 0450ms total)
T11D4 000:668 JLINK_WriteReg(R13 (SP), 0x20001000)  returns 0x00 (0000ms, 0450ms total)
T11D4 000:668 JLINK_WriteReg(R14, 0x20000001)  returns 0x00 (0000ms, 0450ms total)
T11D4 000:668 JLINK_WriteReg(R15 (PC), 0x200000F4)  returns 0x00 (0000ms, 0450ms total)
T11D4 000:668 JLINK_WriteReg(XPSR, 0x01000000)  returns 0x00 (0000ms, 0450ms total)
T11D4 000:668 JLINK_WriteReg(MSP, 0x20001000)  returns 0x00 (0000ms, 0450ms total)
T11D4 000:668 JLINK_WriteReg(PSP, 0x20001000)  returns 0x00 (0000ms, 0450ms total)
T11D4 000:668 JLINK_WriteReg(CFBP, 0x00000000)  returns 0x00 (0000ms, 0450ms total)
T11D4 000:668 JLINK_SetBPEx(Addr = 0x20000000, Type = 0xFFFFFFF2)  returns 0x00000006 (0000ms, 0450ms total)
T11D4 000:668 JLINK_Go() -- CPU_ReadMem(4 bytes @ 0xE0001000) (0007ms, 0457ms total)
T11D4 000:675 JLINK_IsHalted()  returns FALSE (0001ms, 0458ms total)
T11D4 000:678 JLINK_IsHalted()  returns FALSE (0001ms, 0458ms total)
T11D4 000:680 JLINK_IsHalted()  returns FALSE (0001ms, 0458ms total)
T11D4 000:682 JLINK_IsHalted()  returns FALSE (0001ms, 0458ms total)
T11D4 000:684 JLINK_IsHalted()  returns FALSE (0001ms, 0458ms total)
T11D4 000:686 JLINK_IsHalted()  returns FALSE (0001ms, 0458ms total)
T11D4 000:688 JLINK_IsHalted()  returns FALSE (0001ms, 0458ms total)
T11D4 000:690 JLINK_IsHalted()  returns FALSE (0001ms, 0458ms total)
T11D4 000:692 JLINK_IsHalted()  returns FALSE (0001ms, 0458ms total)
T11D4 000:694 JLINK_IsHalted()  returns FALSE (0001ms, 0458ms total)
T11D4 000:696 JLINK_IsHalted()  returns FALSE (0001ms, 0458ms total)
T11D4 000:698 JLINK_IsHalted()  returns FALSE (0001ms, 0458ms total)
T11D4 000:700 JLINK_IsHalted()  returns FALSE (0001ms, 0458ms total)
T11D4 000:702 JLINK_IsHalted()  returns FALSE (0001ms, 0458ms total)
T11D4 000:704 JLINK_IsHalted()  returns FALSE (0001ms, 0458ms total)
T11D4 000:706 JLINK_IsHalted() -- CPU_ReadMem(2 bytes @ 0x20000000)  returns TRUE (0008ms, 0465ms total)
T11D4 000:714 JLINK_ReadReg(R15 (PC))  returns 0x20000000 (0000ms, 0457ms total)
T11D4 000:714 JLINK_ClrBPEx(BPHandle = 0x00000006)  returns 0x00 (0000ms, 0457ms total)
T11D4 000:714 JLINK_ReadReg(R0)  returns 0x00000000 (0000ms, 0457ms total)
T11D4 000:714 JLINK_WriteMem(0x20000164, 0x029C Bytes, ...) - Data: 00 1C 70 47 00 50 00 40 08 4A 02 EB 80 01 D1 F8 ... -- CPU_WriteMem(668 bytes @ 0x20000164)  returns 0x29C (0020ms, 0477ms total)
T11D4 000:734 JLINK_WriteMem(0x20000400, 0x0164 Bytes, ...) - Data: 91 F8 A1 B2 00 20 01 F0 6B FA 28 88 00 1B 28 80 ... -- CPU_WriteMem(356 bytes @ 0x20000400)  returns 0x164 (0011ms, 0488ms total)
T11D4 000:745 JLINK_WriteReg(R0, 0x08000800)  returns 0x00 (0000ms, 0488ms total)
T11D4 000:745 JLINK_WriteReg(R1, 0x00000400)  returns 0x00 (0000ms, 0488ms total)
T11D4 000:745 JLINK_WriteReg(R2, 0x20000164)  returns 0x00 (0000ms, 0488ms total)
T11D4 000:745 JLINK_WriteReg(R3, 0x00000000)  returns 0x00 (0000ms, 0488ms total)
T11D4 000:745 JLINK_WriteReg(R4, 0x00000000)  returns 0x00 (0000ms, 0488ms total)
T11D4 000:745 JLINK_WriteReg(R5, 0x00000000)  returns 0x00 (0000ms, 0488ms total)
T11D4 000:745 JLINK_WriteReg(R6, 0x00000000)  returns 0x00 (0000ms, 0488ms total)
T11D4 000:745 JLINK_WriteReg(R7, 0x00000000)  returns 0x00 (0000ms, 0488ms total)
T11D4 000:745 JLINK_WriteReg(R8, 0x00000000)  returns 0x00 (0000ms, 0488ms total)
T11D4 000:745 JLINK_WriteReg(R9, 0x20000160)  returns 0x00 (0000ms, 0488ms total)
T11D4 000:745 JLINK_WriteReg(R10, 0x00000000)  returns 0x00 (0000ms, 0488ms total)
T11D4 000:745 JLINK_WriteReg(R11, 0x00000000)  returns 0x00 (0000ms, 0488ms total)
T11D4 000:745 JLINK_WriteReg(R12, 0x00000000)  returns 0x00 (0000ms, 0488ms total)
T11D4 000:745 JLINK_WriteReg(R13 (SP), 0x20001000)  returns 0x00 (0000ms, 0488ms total)
T11D4 000:745 JLINK_WriteReg(R14, 0x20000001)  returns 0x00 (0000ms, 0488ms total)
T11D4 000:745 JLINK_WriteReg(R15 (PC), 0x200000F4)  returns 0x00 (0000ms, 0488ms total)
T11D4 000:745 JLINK_WriteReg(XPSR, 0x01000000)  returns 0x00 (0000ms, 0488ms total)
T11D4 000:745 JLINK_WriteReg(MSP, 0x20001000)  returns 0x00 (0000ms, 0488ms total)
T11D4 000:745 JLINK_WriteReg(PSP, 0x20001000)  returns 0x00 (0000ms, 0488ms total)
T11D4 000:745 JLINK_WriteReg(CFBP, 0x00000000)  returns 0x00 (0000ms, 0488ms total)
T11D4 000:745 JLINK_SetBPEx(Addr = 0x20000000, Type = 0xFFFFFFF2)  returns 0x00000007 (0000ms, 0488ms total)
T11D4 000:745 JLINK_Go() -- CPU_ReadMem(4 bytes @ 0xE0001000) (0007ms, 0495ms total)
T11D4 000:752 JLINK_IsHalted()  returns FALSE (0001ms, 0496ms total)
T11D4 000:755 JLINK_IsHalted()  returns FALSE (0001ms, 0496ms total)
T11D4 000:757 JLINK_IsHalted()  returns FALSE (0001ms, 0496ms total)
T11D4 000:759 JLINK_IsHalted()  returns FALSE (0001ms, 0496ms total)
T11D4 000:761 JLINK_IsHalted()  returns FALSE (0001ms, 0496ms total)
T11D4 000:763 JLINK_IsHalted()  returns FALSE (0001ms, 0496ms total)
T11D4 000:765 JLINK_IsHalted()  returns FALSE (0001ms, 0496ms total)
T11D4 000:767 JLINK_IsHalted()  returns FALSE (0001ms, 0496ms total)
T11D4 000:770 JLINK_IsHalted()  returns FALSE (0000ms, 0495ms total)
T11D4 000:772 JLINK_IsHalted()  returns FALSE (0000ms, 0495ms total)
T11D4 000:774 JLINK_IsHalted()  returns FALSE (0000ms, 0495ms total)
T11D4 000:776 JLINK_IsHalted()  returns FALSE (0000ms, 0495ms total)
T11D4 000:778 JLINK_IsHalted()  returns FALSE (0000ms, 0495ms total)
T11D4 000:780 JLINK_IsHalted()  returns FALSE (0000ms, 0495ms total)
T11D4 000:782 JLINK_IsHalted()  returns FALSE (0000ms, 0495ms total)
T11D4 000:784 JLINK_IsHalted() -- CPU_ReadMem(2 bytes @ 0x20000000)  returns TRUE (0007ms, 0502ms total)
T11D4 000:791 JLINK_ReadReg(R15 (PC))  returns 0x20000000 (0000ms, 0495ms total)
T11D4 000:791 JLINK_ClrBPEx(BPHandle = 0x00000007)  returns 0x00 (0000ms, 0495ms total)
T11D4 000:791 JLINK_ReadReg(R0)  returns 0x00000000 (0000ms, 0495ms total)
T11D4 000:792 JLINK_WriteMem(0x20000164, 0x029C Bytes, ...) - Data: 04 E0 03 28 02 D1 8D 49 09 68 4F 6A 94 E0 00 2D ... -- CPU_WriteMem(668 bytes @ 0x20000164)  returns 0x29C (0019ms, 0514ms total)
T11D4 000:811 JLINK_WriteMem(0x20000400, 0x0164 Bytes, ...) - Data: 0F 05 91 F8 03 C0 0C F0 10 0C BC F1 00 0F 03 D0 ... -- CPU_WriteMem(356 bytes @ 0x20000400)  returns 0x164 (0012ms, 0526ms total)
T11D4 000:823 JLINK_WriteReg(R0, 0x08000C00)  returns 0x00 (0000ms, 0526ms total)
T11D4 000:823 JLINK_WriteReg(R1, 0x00000400)  returns 0x00 (0000ms, 0526ms total)
T11D4 000:823 JLINK_WriteReg(R2, 0x20000164)  returns 0x00 (0000ms, 0526ms total)
T11D4 000:823 JLINK_WriteReg(R3, 0x00000000)  returns 0x00 (0000ms, 0526ms total)
T11D4 000:823 JLINK_WriteReg(R4, 0x00000000)  returns 0x00 (0000ms, 0526ms total)
T11D4 000:823 JLINK_WriteReg(R5, 0x00000000)  returns 0x00 (0000ms, 0526ms total)
T11D4 000:823 JLINK_WriteReg(R6, 0x00000000)  returns 0x00 (0000ms, 0526ms total)
T11D4 000:823 JLINK_WriteReg(R7, 0x00000000)  returns 0x00 (0000ms, 0526ms total)
T11D4 000:823 JLINK_WriteReg(R8, 0x00000000)  returns 0x00 (0000ms, 0526ms total)
T11D4 000:823 JLINK_WriteReg(R9, 0x20000160)  returns 0x00 (0000ms, 0526ms total)
T11D4 000:823 JLINK_WriteReg(R10, 0x00000000)  returns 0x00 (0000ms, 0526ms total)
T11D4 000:823 JLINK_WriteReg(R11, 0x00000000)  returns 0x00 (0000ms, 0526ms total)
T11D4 000:823 JLINK_WriteReg(R12, 0x00000000)  returns 0x00 (0000ms, 0526ms total)
T11D4 000:823 JLINK_WriteReg(R13 (SP), 0x20001000)  returns 0x00 (0000ms, 0526ms total)
T11D4 000:823 JLINK_WriteReg(R14, 0x20000001)  returns 0x00 (0000ms, 0526ms total)
T11D4 000:823 JLINK_WriteReg(R15 (PC), 0x200000F4)  returns 0x00 (0000ms, 0526ms total)
T11D4 000:823 JLINK_WriteReg(XPSR, 0x01000000)  returns 0x00 (0000ms, 0526ms total)
T11D4 000:823 JLINK_WriteReg(MSP, 0x20001000)  returns 0x00 (0000ms, 0526ms total)
T11D4 000:823 JLINK_WriteReg(PSP, 0x20001000)  returns 0x00 (0000ms, 0526ms total)
T11D4 000:823 JLINK_WriteReg(CFBP, 0x00000000)  returns 0x00 (0000ms, 0526ms total)
T11D4 000:823 JLINK_SetBPEx(Addr = 0x20000000, Type = 0xFFFFFFF2)  returns 0x00000008 (0000ms, 0526ms total)
T11D4 000:823 JLINK_Go() -- CPU_ReadMem(4 bytes @ 0xE0001000) (0007ms, 0533ms total)
T11D4 000:830 JLINK_IsHalted()  returns FALSE (0001ms, 0534ms total)
T11D4 000:832 JLINK_IsHalted()  returns FALSE (0001ms, 0534ms total)
T11D4 000:834 JLINK_IsHalted()  returns FALSE (0001ms, 0534ms total)
T11D4 000:836 JLINK_IsHalted()  returns FALSE (0001ms, 0534ms total)
T11D4 000:838 JLINK_IsHalted()  returns FALSE (0001ms, 0534ms total)
T11D4 000:840 JLINK_IsHalted()  returns FALSE (0001ms, 0534ms total)
T11D4 000:842 JLINK_IsHalted()  returns FALSE (0001ms, 0534ms total)
T11D4 000:844 JLINK_IsHalted()  returns FALSE (0001ms, 0534ms total)
T11D4 000:846 JLINK_IsHalted()  returns FALSE (0001ms, 0534ms total)
T11D4 000:848 JLINK_IsHalted()  returns FALSE (0001ms, 0534ms total)
T11D4 000:850 JLINK_IsHalted()  returns FALSE (0001ms, 0534ms total)
T11D4 000:852 JLINK_IsHalted()  returns FALSE (0001ms, 0534ms total)
T11D4 000:854 JLINK_IsHalted()  returns FALSE (0001ms, 0534ms total)
T11D4 000:856 JLINK_IsHalted()  returns FALSE (0001ms, 0534ms total)
T11D4 000:858 JLINK_IsHalted()  returns FALSE (0001ms, 0534ms total)
T11D4 000:860 JLINK_IsHalted() -- CPU_ReadMem(2 bytes @ 0x20000000)  returns TRUE (0008ms, 0541ms total)
T11D4 000:868 JLINK_ReadReg(R15 (PC))  returns 0x20000000 (0000ms, 0533ms total)
T11D4 000:868 JLINK_ClrBPEx(BPHandle = 0x00000008)  returns 0x00 (0000ms, 0533ms total)
T11D4 000:868 JLINK_ReadReg(R0)  returns 0x00000000 (0000ms, 0533ms total)
T11D4 000:868 JLINK_WriteMem(0x20000164, 0x029C Bytes, ...) - Data: 11 FA 01 21 06 48 FF F7 6E FA 00 BF 02 21 04 48 ... -- CPU_WriteMem(668 bytes @ 0x20000164)  returns 0x29C (0020ms, 0553ms total)
T11D4 000:888 JLINK_WriteMem(0x20000400, 0x0164 Bytes, ...) - Data: 00 78 00 F0 7F 00 21 28 04 D1 0B 2A 02 D1 00 F0 ... -- CPU_WriteMem(356 bytes @ 0x20000400)  returns 0x164 (0011ms, 0564ms total)
T11D4 000:899 JLINK_WriteReg(R0, 0x08001000)  returns 0x00 (0000ms, 0564ms total)
T11D4 000:899 JLINK_WriteReg(R1, 0x00000400)  returns 0x00 (0000ms, 0564ms total)
T11D4 000:899 JLINK_WriteReg(R2, 0x20000164)  returns 0x00 (0000ms, 0564ms total)
T11D4 000:899 JLINK_WriteReg(R3, 0x00000000)  returns 0x00 (0000ms, 0564ms total)
T11D4 000:899 JLINK_WriteReg(R4, 0x00000000)  returns 0x00 (0000ms, 0564ms total)
T11D4 000:899 JLINK_WriteReg(R5, 0x00000000)  returns 0x00 (0000ms, 0564ms total)
T11D4 000:899 JLINK_WriteReg(R6, 0x00000000)  returns 0x00 (0000ms, 0564ms total)
T11D4 000:899 JLINK_WriteReg(R7, 0x00000000)  returns 0x00 (0000ms, 0564ms total)
T11D4 000:899 JLINK_WriteReg(R8, 0x00000000)  returns 0x00 (0000ms, 0564ms total)
T11D4 000:899 JLINK_WriteReg(R9, 0x20000160)  returns 0x00 (0000ms, 0564ms total)
T11D4 000:899 JLINK_WriteReg(R10, 0x00000000)  returns 0x00 (0000ms, 0564ms total)
T11D4 000:899 JLINK_WriteReg(R11, 0x00000000)  returns 0x00 (0000ms, 0564ms total)
T11D4 000:899 JLINK_WriteReg(R12, 0x00000000)  returns 0x00 (0000ms, 0564ms total)
T11D4 000:899 JLINK_WriteReg(R13 (SP), 0x20001000)  returns 0x00 (0000ms, 0564ms total)
T11D4 000:899 JLINK_WriteReg(R14, 0x20000001)  returns 0x00 (0000ms, 0564ms total)
T11D4 000:899 JLINK_WriteReg(R15 (PC), 0x200000F4)  returns 0x00 (0000ms, 0564ms total)
T11D4 000:899 JLINK_WriteReg(XPSR, 0x01000000)  returns 0x00 (0000ms, 0564ms total)
T11D4 000:899 JLINK_WriteReg(MSP, 0x20001000)  returns 0x00 (0000ms, 0564ms total)
T11D4 000:899 JLINK_WriteReg(PSP, 0x20001000)  returns 0x00 (0000ms, 0564ms total)
T11D4 000:899 JLINK_WriteReg(CFBP, 0x00000000)  returns 0x00 (0000ms, 0564ms total)
T11D4 000:899 JLINK_SetBPEx(Addr = 0x20000000, Type = 0xFFFFFFF2)  returns 0x00000009 (0000ms, 0564ms total)
T11D4 000:899 JLINK_Go() -- CPU_ReadMem(4 bytes @ 0xE0001000) (0008ms, 0572ms total)
T11D4 000:907 JLINK_IsHalted()  returns FALSE (0001ms, 0573ms total)
T11D4 000:910 JLINK_IsHalted()  returns FALSE (0000ms, 0572ms total)
T11D4 000:912 JLINK_IsHalted()  returns FALSE (0000ms, 0572ms total)
T11D4 000:914 JLINK_IsHalted()  returns FALSE (0000ms, 0572ms total)
T11D4 000:916 JLINK_IsHalted()  returns FALSE (0000ms, 0572ms total)
T11D4 000:918 JLINK_IsHalted()  returns FALSE (0000ms, 0572ms total)
T11D4 000:920 JLINK_IsHalted()  returns FALSE (0000ms, 0572ms total)
T11D4 000:922 JLINK_IsHalted()  returns FALSE (0000ms, 0572ms total)
T11D4 000:924 JLINK_IsHalted()  returns FALSE (0001ms, 0573ms total)
T11D4 000:926 JLINK_IsHalted()  returns FALSE (0001ms, 0573ms total)
T11D4 000:928 JLINK_IsHalted()  returns FALSE (0001ms, 0573ms total)
T11D4 000:930 JLINK_IsHalted()  returns FALSE (0001ms, 0573ms total)
T11D4 000:932 JLINK_IsHalted()  returns FALSE (0001ms, 0573ms total)
T11D4 000:934 JLINK_IsHalted()  returns FALSE (0001ms, 0573ms total)
T11D4 000:936 JLINK_IsHalted()  returns FALSE (0001ms, 0573ms total)
T11D4 000:938 JLINK_IsHalted() -- CPU_ReadMem(2 bytes @ 0x20000000)  returns TRUE (0008ms, 0580ms total)
T11D4 000:946 JLINK_ReadReg(R15 (PC))  returns 0x20000000 (0000ms, 0572ms total)
T11D4 000:946 JLINK_ClrBPEx(BPHandle = 0x00000009)  returns 0x00 (0000ms, 0572ms total)
T11D4 000:946 JLINK_ReadReg(R0)  returns 0x00000000 (0000ms, 0572ms total)
T11D4 000:946 JLINK_WriteMem(0x20000164, 0x029C Bytes, ...) - Data: 38 48 02 90 10 20 03 90 00 20 0A 90 05 90 80 20 ... -- CPU_WriteMem(668 bytes @ 0x20000164)  returns 0x29C (0020ms, 0592ms total)
T11D4 000:966 JLINK_WriteMem(0x20000400, 0x0164 Bytes, ...) - Data: 00 BF FE E7 70 47 70 47 70 B5 00 21 00 23 0F 22 ... -- CPU_WriteMem(356 bytes @ 0x20000400)  returns 0x164 (0011ms, 0603ms total)
T11D4 000:977 JLINK_WriteReg(R0, 0x08001400)  returns 0x00 (0000ms, 0603ms total)
T11D4 000:977 JLINK_WriteReg(R1, 0x00000400)  returns 0x00 (0000ms, 0603ms total)
T11D4 000:977 JLINK_WriteReg(R2, 0x20000164)  returns 0x00 (0000ms, 0603ms total)
T11D4 000:977 JLINK_WriteReg(R3, 0x00000000)  returns 0x00 (0000ms, 0603ms total)
T11D4 000:977 JLINK_WriteReg(R4, 0x00000000)  returns 0x00 (0000ms, 0603ms total)
T11D4 000:977 JLINK_WriteReg(R5, 0x00000000)  returns 0x00 (0000ms, 0603ms total)
T11D4 000:977 JLINK_WriteReg(R6, 0x00000000)  returns 0x00 (0000ms, 0603ms total)
T11D4 000:977 JLINK_WriteReg(R7, 0x00000000)  returns 0x00 (0000ms, 0603ms total)
T11D4 000:977 JLINK_WriteReg(R8, 0x00000000)  returns 0x00 (0000ms, 0603ms total)
T11D4 000:977 JLINK_WriteReg(R9, 0x20000160)  returns 0x00 (0000ms, 0603ms total)
T11D4 000:977 JLINK_WriteReg(R10, 0x00000000)  returns 0x00 (0000ms, 0603ms total)
T11D4 000:977 JLINK_WriteReg(R11, 0x00000000)  returns 0x00 (0000ms, 0603ms total)
T11D4 000:977 JLINK_WriteReg(R12, 0x00000000)  returns 0x00 (0000ms, 0603ms total)
T11D4 000:977 JLINK_WriteReg(R13 (SP), 0x20001000)  returns 0x00 (0000ms, 0603ms total)
T11D4 000:977 JLINK_WriteReg(R14, 0x20000001)  returns 0x00 (0000ms, 0603ms total)
T11D4 000:977 JLINK_WriteReg(R15 (PC), 0x200000F4)  returns 0x00 (0000ms, 0603ms total)
T11D4 000:977 JLINK_WriteReg(XPSR, 0x01000000)  returns 0x00 (0000ms, 0603ms total)
T11D4 000:977 JLINK_WriteReg(MSP, 0x20001000)  returns 0x00 (0000ms, 0603ms total)
T11D4 000:977 JLINK_WriteReg(PSP, 0x20001000)  returns 0x00 (0000ms, 0603ms total)
T11D4 000:977 JLINK_WriteReg(CFBP, 0x00000000)  returns 0x00 (0000ms, 0603ms total)
T11D4 000:977 JLINK_SetBPEx(Addr = 0x20000000, Type = 0xFFFFFFF2)  returns 0x0000000A (0000ms, 0603ms total)
T11D4 000:977 JLINK_Go() -- CPU_ReadMem(4 bytes @ 0xE0001000) (0007ms, 0610ms total)
T11D4 000:984 JLINK_IsHalted()  returns FALSE (0001ms, 0611ms total)
T11D4 000:987 JLINK_IsHalted()  returns FALSE (0001ms, 0611ms total)
T11D4 000:989 JLINK_IsHalted()  returns FALSE (0001ms, 0611ms total)
T11D4 000:991 JLINK_IsHalted()  returns FALSE (0001ms, 0611ms total)
T11D4 000:993 JLINK_IsHalted()  returns FALSE (0001ms, 0611ms total)
T11D4 000:995 JLINK_IsHalted()  returns FALSE (0001ms, 0611ms total)
T11D4 000:997 JLINK_IsHalted()  returns FALSE (0001ms, 0611ms total)
T11D4 000:999 JLINK_IsHalted()  returns FALSE (0001ms, 0611ms total)
T11D4 001:001 JLINK_IsHalted()  returns FALSE (0001ms, 0611ms total)
T11D4 001:003 JLINK_IsHalted()  returns FALSE (0001ms, 0611ms total)
T11D4 001:005 JLINK_IsHalted()  returns FALSE (0001ms, 0611ms total)
T11D4 001:007 JLINK_IsHalted()  returns FALSE (0001ms, 0611ms total)
T11D4 001:009 JLINK_IsHalted()  returns FALSE (0001ms, 0611ms total)
T11D4 001:011 JLINK_IsHalted()  returns FALSE (0001ms, 0611ms total)
T11D4 001:013 JLINK_IsHalted()  returns FALSE (0001ms, 0611ms total)
T11D4 001:015 JLINK_IsHalted() -- CPU_ReadMem(2 bytes @ 0x20000000)  returns TRUE (0008ms, 0618ms total)
T11D4 001:023 JLINK_ReadReg(R15 (PC))  returns 0x20000000 (0000ms, 0610ms total)
T11D4 001:023 JLINK_ClrBPEx(BPHandle = 0x0000000A)  returns 0x00 (0000ms, 0610ms total)
T11D4 001:023 JLINK_ReadReg(R0)  returns 0x00000000 (0000ms, 0610ms total)
T11D4 001:023 JLINK_WriteMem(0x20000164, 0x029C Bytes, ...) - Data: E0 B2 10 4A 12 68 51 69 88 47 06 46 03 2E 01 D1 ... -- CPU_WriteMem(668 bytes @ 0x20000164)  returns 0x29C (0020ms, 0630ms total)
T11D4 001:043 JLINK_WriteMem(0x20000400, 0x0164 Bytes, ...) - Data: 01 F0 D6 F8 70 BD 00 00 10 B5 11 48 00 68 04 7A ... -- CPU_WriteMem(356 bytes @ 0x20000400)  returns 0x164 (0011ms, 0641ms total)
T11D4 001:054 JLINK_WriteReg(R0, 0x08001800)  returns 0x00 (0000ms, 0641ms total)
T11D4 001:054 JLINK_WriteReg(R1, 0x00000400)  returns 0x00 (0000ms, 0641ms total)
T11D4 001:054 JLINK_WriteReg(R2, 0x20000164)  returns 0x00 (0000ms, 0641ms total)
T11D4 001:054 JLINK_WriteReg(R3, 0x00000000)  returns 0x00 (0000ms, 0641ms total)
T11D4 001:054 JLINK_WriteReg(R4, 0x00000000)  returns 0x00 (0000ms, 0641ms total)
T11D4 001:054 JLINK_WriteReg(R5, 0x00000000)  returns 0x00 (0000ms, 0641ms total)
T11D4 001:054 JLINK_WriteReg(R6, 0x00000000)  returns 0x00 (0000ms, 0641ms total)
T11D4 001:054 JLINK_WriteReg(R7, 0x00000000)  returns 0x00 (0000ms, 0641ms total)
T11D4 001:054 JLINK_WriteReg(R8, 0x00000000)  returns 0x00 (0000ms, 0641ms total)
T11D4 001:054 JLINK_WriteReg(R9, 0x20000160)  returns 0x00 (0000ms, 0641ms total)
T11D4 001:054 JLINK_WriteReg(R10, 0x00000000)  returns 0x00 (0000ms, 0641ms total)
T11D4 001:054 JLINK_WriteReg(R11, 0x00000000)  returns 0x00 (0000ms, 0641ms total)
T11D4 001:054 JLINK_WriteReg(R12, 0x00000000)  returns 0x00 (0000ms, 0641ms total)
T11D4 001:054 JLINK_WriteReg(R13 (SP), 0x20001000)  returns 0x00 (0000ms, 0641ms total)
T11D4 001:054 JLINK_WriteReg(R14, 0x20000001)  returns 0x00 (0000ms, 0641ms total)
T11D4 001:054 JLINK_WriteReg(R15 (PC), 0x200000F4)  returns 0x00 (0000ms, 0641ms total)
T11D4 001:054 JLINK_WriteReg(XPSR, 0x01000000)  returns 0x00 (0000ms, 0641ms total)
T11D4 001:054 JLINK_WriteReg(MSP, 0x20001000)  returns 0x00 (0000ms, 0641ms total)
T11D4 001:054 JLINK_WriteReg(PSP, 0x20001000)  returns 0x00 (0000ms, 0641ms total)
T11D4 001:054 JLINK_WriteReg(CFBP, 0x00000000)  returns 0x00 (0000ms, 0641ms total)
T11D4 001:054 JLINK_SetBPEx(Addr = 0x20000000, Type = 0xFFFFFFF2)  returns 0x0000000B (0000ms, 0641ms total)
T11D4 001:054 JLINK_Go() -- CPU_ReadMem(4 bytes @ 0xE0001000) (0007ms, 0648ms total)
T11D4 001:061 JLINK_IsHalted()  returns FALSE (0001ms, 0649ms total)
T11D4 001:064 JLINK_IsHalted()  returns FALSE (0000ms, 0648ms total)
T11D4 001:066 JLINK_IsHalted()  returns FALSE (0000ms, 0648ms total)
T11D4 001:068 JLINK_IsHalted()  returns FALSE (0000ms, 0648ms total)
T11D4 001:070 JLINK_IsHalted()  returns FALSE (0000ms, 0648ms total)
T11D4 001:072 JLINK_IsHalted()  returns FALSE (0000ms, 0648ms total)
T11D4 001:074 JLINK_IsHalted()  returns FALSE (0000ms, 0648ms total)
T11D4 001:076 JLINK_IsHalted()  returns FALSE (0000ms, 0648ms total)
T11D4 001:078 JLINK_IsHalted()  returns FALSE (0000ms, 0648ms total)
T11D4 001:081 JLINK_IsHalted()  returns FALSE (0001ms, 0649ms total)
T11D4 001:083 JLINK_IsHalted()  returns FALSE (0001ms, 0649ms total)
T11D4 001:085 JLINK_IsHalted()  returns FALSE (0001ms, 0649ms total)
T11D4 001:087 JLINK_IsHalted()  returns FALSE (0001ms, 0649ms total)
T11D4 001:089 JLINK_IsHalted()  returns FALSE (0001ms, 0649ms total)
T11D4 001:091 JLINK_IsHalted()  returns FALSE (0001ms, 0649ms total)
T11D4 001:093 JLINK_IsHalted() -- CPU_ReadMem(2 bytes @ 0x20000000)  returns TRUE (0008ms, 0656ms total)
T11D4 001:101 JLINK_ReadReg(R15 (PC))  returns 0x20000000 (0000ms, 0648ms total)
T11D4 001:101 JLINK_ClrBPEx(BPHandle = 0x0000000B)  returns 0x00 (0000ms, 0648ms total)
T11D4 001:101 JLINK_ReadReg(R0)  returns 0x00000000 (0000ms, 0648ms total)
T11D4 001:101 JLINK_WriteMem(0x20000164, 0x029C Bytes, ...) - Data: 29 B1 06 4A 12 69 02 43 04 4B 1A 61 04 E0 03 4A ... -- CPU_WriteMem(668 bytes @ 0x20000164)  returns 0x29C (0020ms, 0668ms total)
T11D4 001:121 JLINK_WriteMem(0x20000400, 0x0164 Bytes, ...) - Data: 10 B5 02 46 0F 48 00 68 80 B2 00 EB C2 00 80 1D ... -- CPU_WriteMem(356 bytes @ 0x20000400)  returns 0x164 (0011ms, 0679ms total)
T11D4 001:132 JLINK_WriteReg(R0, 0x08001C00)  returns 0x00 (0000ms, 0679ms total)
T11D4 001:132 JLINK_WriteReg(R1, 0x00000400)  returns 0x00 (0000ms, 0679ms total)
T11D4 001:132 JLINK_WriteReg(R2, 0x20000164)  returns 0x00 (0000ms, 0679ms total)
T11D4 001:132 JLINK_WriteReg(R3, 0x00000000)  returns 0x00 (0000ms, 0679ms total)
T11D4 001:132 JLINK_WriteReg(R4, 0x00000000)  returns 0x00 (0000ms, 0679ms total)
T11D4 001:132 JLINK_WriteReg(R5, 0x00000000)  returns 0x00 (0000ms, 0679ms total)
T11D4 001:132 JLINK_WriteReg(R6, 0x00000000)  returns 0x00 (0000ms, 0679ms total)
T11D4 001:132 JLINK_WriteReg(R7, 0x00000000)  returns 0x00 (0000ms, 0679ms total)
T11D4 001:132 JLINK_WriteReg(R8, 0x00000000)  returns 0x00 (0000ms, 0679ms total)
T11D4 001:132 JLINK_WriteReg(R9, 0x20000160)  returns 0x00 (0000ms, 0679ms total)
T11D4 001:132 JLINK_WriteReg(R10, 0x00000000)  returns 0x00 (0000ms, 0679ms total)
T11D4 001:132 JLINK_WriteReg(R11, 0x00000000)  returns 0x00 (0000ms, 0679ms total)
T11D4 001:132 JLINK_WriteReg(R12, 0x00000000)  returns 0x00 (0000ms, 0679ms total)
T11D4 001:132 JLINK_WriteReg(R13 (SP), 0x20001000)  returns 0x00 (0000ms, 0679ms total)
T11D4 001:132 JLINK_WriteReg(R14, 0x20000001)  returns 0x00 (0000ms, 0679ms total)
T11D4 001:132 JLINK_WriteReg(R15 (PC), 0x200000F4)  returns 0x00 (0000ms, 0679ms total)
T11D4 001:132 JLINK_WriteReg(XPSR, 0x01000000)  returns 0x00 (0000ms, 0679ms total)
T11D4 001:132 JLINK_WriteReg(MSP, 0x20001000)  returns 0x00 (0000ms, 0679ms total)
T11D4 001:132 JLINK_WriteReg(PSP, 0x20001000)  returns 0x00 (0000ms, 0679ms total)
T11D4 001:132 JLINK_WriteReg(CFBP, 0x00000000)  returns 0x00 (0000ms, 0679ms total)
T11D4 001:132 JLINK_SetBPEx(Addr = 0x20000000, Type = 0xFFFFFFF2)  returns 0x0000000C (0000ms, 0679ms total)
T11D4 001:132 JLINK_Go() -- CPU_ReadMem(4 bytes @ 0xE0001000) (0007ms, 0686ms total)
T11D4 001:139 JLINK_IsHalted()  returns FALSE (0001ms, 0687ms total)
T11D4 001:142 JLINK_IsHalted()  returns FALSE (0001ms, 0687ms total)
T11D4 001:144 JLINK_IsHalted()  returns FALSE (0001ms, 0687ms total)
T11D4 001:146 JLINK_IsHalted()  returns FALSE (0001ms, 0687ms total)
T11D4 001:148 JLINK_IsHalted()  returns FALSE (0001ms, 0687ms total)
T11D4 001:150 JLINK_IsHalted()  returns FALSE (0001ms, 0687ms total)
T11D4 001:152 JLINK_IsHalted()  returns FALSE (0001ms, 0687ms total)
T11D4 001:154 JLINK_IsHalted()  returns FALSE (0001ms, 0687ms total)
T11D4 001:156 JLINK_IsHalted()  returns FALSE (0001ms, 0687ms total)
T11D4 001:158 JLINK_IsHalted()  returns FALSE (0001ms, 0687ms total)
T11D4 001:160 JLINK_IsHalted()  returns FALSE (0001ms, 0687ms total)
T11D4 001:162 JLINK_IsHalted()  returns FALSE (0001ms, 0687ms total)
T11D4 001:164 JLINK_IsHalted()  returns FALSE (0001ms, 0687ms total)
T11D4 001:166 JLINK_IsHalted()  returns FALSE (0001ms, 0687ms total)
T11D4 001:168 JLINK_IsHalted()  returns FALSE (0001ms, 0687ms total)
T11D4 001:170 JLINK_IsHalted() -- CPU_ReadMem(2 bytes @ 0x20000000)  returns TRUE (0008ms, 0694ms total)
T11D4 001:178 JLINK_ReadReg(R15 (PC))  returns 0x20000000 (0000ms, 0686ms total)
T11D4 001:178 JLINK_ClrBPEx(BPHandle = 0x0000000C)  returns 0x00 (0000ms, 0686ms total)
T11D4 001:178 JLINK_ReadReg(R0)  returns 0x00000000 (0000ms, 0686ms total)
T11D4 001:178 JLINK_WriteMem(0x20000164, 0x029C Bytes, ...) - Data: 80 03 C3 F8 00 2C 10 BD 00 50 00 40 10 B5 07 4B ... -- CPU_WriteMem(668 bytes @ 0x20000164)  returns 0x29C (0020ms, 0706ms total)
T11D4 001:198 JLINK_WriteMem(0x20000400, 0x0164 Bytes, ...) - Data: 80 5F 39 D1 E4 B9 24 4A 92 F8 2C 10 E0 B2 FF F7 ... -- CPU_WriteMem(356 bytes @ 0x20000400)  returns 0x164 (0011ms, 0717ms total)
T11D4 001:209 JLINK_WriteReg(R0, 0x08002000)  returns 0x00 (0000ms, 0717ms total)
T11D4 001:209 JLINK_WriteReg(R1, 0x00000400)  returns 0x00 (0000ms, 0717ms total)
T11D4 001:209 JLINK_WriteReg(R2, 0x20000164)  returns 0x00 (0000ms, 0717ms total)
T11D4 001:209 JLINK_WriteReg(R3, 0x00000000)  returns 0x00 (0000ms, 0717ms total)
T11D4 001:209 JLINK_WriteReg(R4, 0x00000000)  returns 0x00 (0000ms, 0717ms total)
T11D4 001:209 JLINK_WriteReg(R5, 0x00000000)  returns 0x00 (0000ms, 0717ms total)
T11D4 001:209 JLINK_WriteReg(R6, 0x00000000)  returns 0x00 (0000ms, 0717ms total)
T11D4 001:209 JLINK_WriteReg(R7, 0x00000000)  returns 0x00 (0000ms, 0717ms total)
T11D4 001:209 JLINK_WriteReg(R8, 0x00000000)  returns 0x00 (0000ms, 0717ms total)
T11D4 001:209 JLINK_WriteReg(R9, 0x20000160)  returns 0x00 (0000ms, 0717ms total)
T11D4 001:209 JLINK_WriteReg(R10, 0x00000000)  returns 0x00 (0000ms, 0717ms total)
T11D4 001:209 JLINK_WriteReg(R11, 0x00000000)  returns 0x00 (0000ms, 0717ms total)
T11D4 001:209 JLINK_WriteReg(R12, 0x00000000)  returns 0x00 (0000ms, 0717ms total)
T11D4 001:209 JLINK_WriteReg(R13 (SP), 0x20001000)  returns 0x00 (0000ms, 0717ms total)
T11D4 001:209 JLINK_WriteReg(R14, 0x20000001)  returns 0x00 (0000ms, 0717ms total)
T11D4 001:209 JLINK_WriteReg(R15 (PC), 0x200000F4)  returns 0x00 (0000ms, 0717ms total)
